T3C24 000:006.212   SEGGER J-Link V6.86 Log File
T3C24 000:006.354   DLL Compiled: Sep 24 2020 17:31:31
T3C24 000:006.367   Logging started @ 2020-12-26 14:39
T3C24 000:006.378 - 6.384ms
T3C24 000:006.395 JLINK_SetWarnOutHandler(...)
T3C24 000:006.408 - 0.018ms
T3C24 000:006.421 JLINK_OpenEx(...)
T3C24 000:008.140   Firmware: J-Link OB-STM32F072-CortexM compiled Mar  8 2020 11:15:54
T3C24 000:008.321   Decompressing FW timestamp took 139 us
T3C24 000:014.703   Hardware: V1.00
T3C24 000:014.734   S/N: 20413133
T3C24 000:014.752   OEM: SEGGER
T3C24 000:014.770   Feature(s): GDB, RDI, FlashBP, FlashDL, JFlash, RDDI
T3C24 000:016.688   TELNET listener socket opened on port 19021
T3C24 000:016.918   WEBSRV Starting webserver
T3C24 000:017.011   WEBSRV Webserver running on local port 19080
T3C24 000:017.031 - 10.616ms returns "O.K."
T3C24 000:017.053 JLINK_GetEmuCaps()
T3C24 000:017.084 - 0.037ms returns 0xB8EA5A33
T3C24 000:017.101 JLINK_TIF_GetAvailable(...)
T3C24 000:017.414 - 0.324ms
T3C24 000:017.437 JLINK_SetErrorOutHandler(...)
T3C24 000:017.449 - 0.018ms
T3C24 000:017.473 JLINK_ExecCommand("ProjectFile = "E:\STM32\STM32F103C8T6\5-Remote_control\JLinkSettings.ini"", ...). 
T3C24 000:026.149 - 8.690ms returns 0x00
T3C24 000:032.535 JLINK_ExecCommand("Device = STM32F103C8", ...). 
T3C24 000:041.110   Device "STM32F103C8" selected.
T3C24 000:041.530 - 8.974ms returns 0x00
T3C24 000:041.560 JLINK_GetHardwareVersion()
T3C24 000:041.572 - 0.018ms returns 10000
T3C24 000:041.592 JLINK_GetDLLVersion()
T3C24 000:041.604 - 0.018ms returns 68600
T3C24 000:041.618 JLINK_GetOEMString(...)
T3C24 000:041.631 JLINK_GetFirmwareString(...)
T3C24 000:041.644 - 0.018ms
T3C24 000:048.188 JLINK_GetDLLVersion()
T3C24 000:048.215 - 0.033ms returns 68600
T3C24 000:048.230 JLINK_GetCompileDateTime()
T3C24 000:048.242 - 0.017ms
T3C24 000:051.336 JLINK_GetFirmwareString(...)
T3C24 000:051.362 - 0.031ms
T3C24 000:053.097 JLINK_GetHardwareVersion()
T3C24 000:053.116 - 0.024ms returns 10000
T3C24 000:054.740 JLINK_GetSN()
T3C24 000:054.757 - 0.023ms returns 20413133
T3C24 000:056.387 JLINK_GetOEMString(...)
T3C24 000:059.723 JLINK_TIF_Select(JLINKARM_TIF_SWD)
T3C24 000:061.273 - 1.560ms returns 0x00
T3C24 000:061.294 JLINK_HasError()
T3C24 000:061.315 JLINK_SetSpeed(5000)
T3C24 000:061.574 - 0.268ms
T3C24 000:061.594 JLINK_GetId()
T3C24 000:064.715   Found SW-DP with ID 0x1BA01477
T3C24 000:083.433   Found SW-DP with ID 0x1BA01477
T3C24 000:087.212   Old FW that does not support reading DPIDR via DAP jobs
T3C24 000:093.718   Unknown DP version. Assuming DPv0
T3C24 000:095.379   Scanning AP map to find all available APs
T3C24 000:101.336   AP[1]: Stopped AP scan as end of AP map has been reached
T3C24 000:102.996   AP[0]: AHB-AP (IDR: 0x14770011)
T3C24 000:104.649   Iterating through AP map to find AHB-AP to use
T3C24 000:112.693   AP[0]: Core found
T3C24 000:114.337   AP[0]: AHB-AP ROM base: 0xE00FF000
T3C24 000:119.406   CPUID register: 0x411FC231. Implementer code: 0x41 (ARM)
T3C24 000:121.055   Found Cortex-M3 r1p1, Little endian.
T3C24 000:222.208   -- Max. mem block: 0x00002220
T3C24 000:222.252   CPU_ReadMem(4 bytes @ 0xE000EDF0)
T3C24 000:223.180   CPU_ReadMem(4 bytes @ 0xE0002000)
T3C24 000:225.696   FPUnit: 6 code (BP) slots and 2 literal slots
T3C24 000:225.721   CPU_ReadMem(4 bytes @ 0xE000EDFC)
T3C24 000:226.477   CPU_WriteMem(4 bytes @ 0xE000EDFC)
T3C24 000:227.175   CPU_ReadMem(4 bytes @ 0xE0001000)
T3C24 000:227.912   CPU_WriteMem(4 bytes @ 0xE0001000)
T3C24 000:228.525   CPU_ReadMem(4 bytes @ 0xE000ED88)
T3C24 000:229.159   CPU_WriteMem(4 bytes @ 0xE000ED88)
T3C24 000:229.937   CPU_ReadMem(4 bytes @ 0xE000ED88)
T3C24 000:230.546   CPU_WriteMem(4 bytes @ 0xE000ED88)
T3C24 000:233.021   CoreSight components:
T3C24 000:234.688   ROMTbl[0] @ E00FF000
T3C24 000:234.714   CPU_ReadMem(64 bytes @ 0xE00FF000)
T3C24 000:235.962   CPU_ReadMem(32 bytes @ 0xE000EFE0)
T3C24 000:238.526   ROMTbl[0][0]: E000E000, CID: B105E00D, PID: 001BB000 SCS
T3C24 000:238.552   CPU_ReadMem(32 bytes @ 0xE0001FE0)
T3C24 000:241.436   ROMTbl[0][1]: E0001000, CID: B105E00D, PID: 001BB002 DWT
T3C24 000:241.462   CPU_ReadMem(32 bytes @ 0xE0002FE0)
T3C24 000:244.337   ROMTbl[0][2]: E0002000, CID: B105E00D, PID: 000BB003 FPB
T3C24 000:244.363   CPU_ReadMem(32 bytes @ 0xE0000FE0)
T3C24 000:248.634   ROMTbl[0][3]: E0000000, CID: B105E00D, PID: 001BB001 ITM
T3C24 000:248.671   CPU_ReadMem(32 bytes @ 0xE0040FE0)
T3C24 000:252.255   ROMTbl[0][4]: E0040000, CID: B105900D, PID: 001BB923 TPIU-Lite
T3C24 000:253.169 - 191.585ms returns 0x1BA01477
T3C24 000:253.194 JLINK_GetDLLVersion()
T3C24 000:253.207 - 0.018ms returns 68600
T3C24 000:253.221 JLINK_CORE_GetFound()
T3C24 000:253.233 - 0.018ms returns 0x30000FF
T3C24 000:253.249 JLINK_GetDebugInfo(0x100 = JLINKARM_ROM_TABLE_ADDR_INDEX)
T3C24 000:253.262   Value=0xE00FF000
T3C24 000:253.280 - 0.037ms returns 0
T3C24 000:254.984 JLINK_GetDebugInfo(0x100 = JLINKARM_ROM_TABLE_ADDR_INDEX)
T3C24 000:255.002   Value=0xE00FF000
T3C24 000:255.020 - 0.041ms returns 0
T3C24 000:255.034 JLINK_GetDebugInfo(0x101 = JLINKARM_DEBUG_INFO_ETM_ADDR_INDEX)
T3C24 000:255.046   Value=0x00000000
T3C24 000:255.063 - 0.035ms returns 0
T3C24 000:255.081 JLINK_ReadMemEx(0xE0041FF0, 0x10 Bytes, Flags = 0x02000004)
T3C24 000:255.107   CPU_ReadMem(16 bytes @ 0xE0041FF0)
T3C24 000:256.189   Data:  00 00 00 00 00 00 00 00 00 00 00 00 00 00 00 00
T3C24 000:256.212 - 1.137ms returns 16 (0x10)
T3C24 000:256.228 JLINK_GetDebugInfo(0x102 = JLINKARM_DEBUG_INFO_MTB_ADDR_INDEX)
T3C24 000:256.241   Value=0x00000000
T3C24 000:256.258 - 0.035ms returns 0
T3C24 000:256.272 JLINK_GetDebugInfo(0x103 = JLINKARM_DEBUG_INFO_TPIU_ADDR_INDEX)
T3C24 000:256.284   Value=0xE0040000
T3C24 000:256.301 - 0.035ms returns 0
T3C24 000:256.314 JLINK_GetDebugInfo(0x104 = JLINKARM_DEBUG_INFO_ITM_ADDR_INDEX)
T3C24 000:256.326   Value=0xE0000000
T3C24 000:256.344 - 0.035ms returns 0
T3C24 000:256.357 JLINK_GetDebugInfo(0x105 = JLINKARM_DEBUG_INFO_DWT_ADDR_INDEX)
T3C24 000:256.369   Value=0xE0001000
T3C24 000:256.386 - 0.035ms returns 0
T3C24 000:256.400 JLINK_GetDebugInfo(0x106 = JLINKARM_DEBUG_INFO_FPB_ADDR_INDEX)
T3C24 000:256.412   Value=0xE0002000
T3C24 000:256.429 - 0.035ms returns 0
T3C24 000:256.442 JLINK_GetDebugInfo(0x107 = JLINKARM_DEBUG_INFO_NVIC_ADDR_INDEX)
T3C24 000:256.454   Value=0xE000E000
T3C24 000:256.471 - 0.034ms returns 0
T3C24 000:256.484 JLINK_GetDebugInfo(0x10C = JLINKARM_DEBUG_INFO_DBG_ADDR_INDEX)
T3C24 000:256.496   Value=0xE000EDF0
T3C24 000:256.514 - 0.035ms returns 0
T3C24 000:256.527 JLINK_GetDebugInfo(0x01 = Unknown)
T3C24 000:256.539   Value=0x00000000
T3C24 000:256.557 - 0.036ms returns 0
T3C24 000:256.571 JLINK_ReadMemU32(0xE000ED00, 0x1 Items)
T3C24 000:256.587   CPU_ReadMem(4 bytes @ 0xE000ED00)
T3C24 000:257.498   Data:  31 C2 1F 41
T3C24 000:257.521   Debug reg: CPUID
T3C24 000:257.540 - 0.975ms returns 1 (0x1)
T3C24 000:257.556 JLINK_GetDebugInfo(0x10F = JLINKARM_DEBUG_INFO_HAS_CORTEX_M_SECURITY_EXT_INDEX)
T3C24 000:257.569   Value=0x00000000
T3C24 000:257.587 - 0.036ms returns 0
T3C24 000:257.601 JLINK_HasError()
T3C24 000:257.615 JLINK_SetResetType(JLINKARM_CM3_RESET_TYPE_NORMAL)
T3C24 000:257.628 - 0.018ms returns JLINKARM_CM3_RESET_TYPE_NORMAL
T3C24 000:257.641 JLINK_Reset()
T3C24 000:257.664   CPU is running
T3C24 000:257.684   CPU_WriteMem(4 bytes @ 0xE000EDF0)
T3C24 000:258.642   CPU is running
T3C24 000:258.666   CPU_WriteMem(4 bytes @ 0xE000EDFC)
T3C24 000:261.009   Reset: Halt core after reset via DEMCR.VC_CORERESET.
T3C24 000:265.383   Reset: Reset device via AIRCR.SYSRESETREQ.
T3C24 000:265.416   CPU is running
T3C24 000:265.437   CPU_WriteMem(4 bytes @ 0xE000ED0C)
T3C24 000:319.351   CPU_ReadMem(4 bytes @ 0xE000EDF0)
T3C24 000:320.318   CPU_ReadMem(4 bytes @ 0xE000EDF0)
T3C24 000:321.429   CPU is running
T3C24 000:321.453   CPU_WriteMem(4 bytes @ 0xE000EDF0)
T3C24 000:322.114   CPU is running
T3C24 000:322.138   CPU_WriteMem(4 bytes @ 0xE000EDFC)
T3C24 000:328.830   CPU_ReadMem(4 bytes @ 0xE000EDF0)
T3C24 000:335.509   CPU_WriteMem(4 bytes @ 0xE0002000)
T3C24 000:336.767   CPU_ReadMem(4 bytes @ 0xE000EDFC)
T3C24 000:337.812   CPU_ReadMem(4 bytes @ 0xE0001000)
T3C24 000:338.896 - 81.278ms
T3C24 000:338.939 JLINK_Halt()
T3C24 000:338.953 - 0.022ms returns 0x00
T3C24 000:338.970 JLINK_ReadMemU32(0xE000EDF0, 0x1 Items)
T3C24 000:338.994   CPU_ReadMem(4 bytes @ 0xE000EDF0)
T3C24 000:340.057   Data:  03 00 03 00
T3C24 000:340.119   Debug reg: DHCSR
T3C24 000:340.153 - 1.190ms returns 1 (0x1)
T3C24 000:340.187 JLINK_WriteU32_64(0xE000EDF0, 0xA05F0003)
T3C24 000:340.206   Debug reg: DHCSR
T3C24 000:340.246   CPU_WriteMem(4 bytes @ 0xE000EDF0)
T3C24 000:340.897 - 0.727ms returns 0 (0x00000000)
T3C24 000:340.930 JLINK_WriteU32_64(0xE000EDFC, 0x01000000)
T3C24 000:340.947   Debug reg: DEMCR
T3C24 000:340.990   CPU_WriteMem(4 bytes @ 0xE000EDFC)
T3C24 000:341.680 - 0.764ms returns 0 (0x00000000)
T3C24 000:348.276 JLINK_GetHWStatus(...)
T3C24 000:348.653 - 0.388ms returns 0
T3C24 000:353.329 JLINK_GetNumBPUnits(Type = 0xFFFFFF00)
T3C24 000:353.346 - 0.023ms returns 0x06
T3C24 000:353.360 JLINK_GetNumBPUnits(Type = 0xF0)
T3C24 000:353.372 - 0.017ms returns 0x2000
T3C24 000:353.385 JLINK_GetNumWPUnits()
T3C24 000:353.397 - 0.017ms returns 4
T3C24 000:359.769 JLINK_GetSpeed()
T3C24 000:359.788 - 0.025ms returns 2000
T3C24 000:362.858 JLINK_ReadMemU32(0xE000E004, 0x1 Items)
T3C24 000:362.882   CPU_ReadMem(4 bytes @ 0xE000E004)
T3C24 000:364.096   Data:  01 00 00 00
T3C24 000:364.173 - 1.335ms returns 1 (0x1)
T3C24 000:364.205 JLINK_ReadMemU32(0xE000E004, 0x1 Items)
T3C24 000:364.227   CPU_ReadMem(4 bytes @ 0xE000E004)
T3C24 000:364.892   Data:  01 00 00 00
T3C24 000:364.925 - 0.726ms returns 1 (0x1)
T3C24 000:364.943 JLINK_WriteMemEx(0xE0001000, 0x0000001C Bytes, Flags = 0x02000004)
T3C24 000:364.956   Data:  01 00 00 00 00 00 00 00 00 00 00 00 00 00 00 00 ...
T3C24 000:365.188   CPU_WriteMem(28 bytes @ 0xE0001000)
T3C24 000:366.053 - 1.119ms returns 0x1C
T3C24 000:366.076 JLINK_Halt()
T3C24 000:366.089 - 0.018ms returns 0x00
T3C24 000:366.102 JLINK_IsHalted()
T3C24 000:366.115 - 0.018ms returns TRUE
T3C24 000:368.361 JLINK_WriteMem(0x20000000, 0x164 Bytes, ...)
T3C24 000:368.377   Data:  00 BE 0A E0 0D 78 2D 06 68 40 08 24 40 00 00 D3 ...
T3C24 000:368.610   CPU_WriteMem(356 bytes @ 0x20000000)
T3C24 000:372.673 - 4.331ms returns 0x164
T3C24 000:372.731 JLINK_HasError()
T3C24 000:372.748 JLINK_WriteReg(R0, 0x08000000)
T3C24 000:372.764 - 0.022ms returns 0
T3C24 000:372.778 JLINK_WriteReg(R1, 0x00B71B00)
T3C24 000:372.790 - 0.018ms returns 0
T3C24 000:372.804 JLINK_WriteReg(R2, 0x00000001)
T3C24 000:372.816 - 0.018ms returns 0
T3C24 000:372.830 JLINK_WriteReg(R3, 0x00000000)
T3C24 000:372.842 - 0.017ms returns 0
T3C24 000:372.855 JLINK_WriteReg(R4, 0x00000000)
T3C24 000:372.867 - 0.017ms returns 0
T3C24 000:372.881 JLINK_WriteReg(R5, 0x00000000)
T3C24 000:372.893 - 0.018ms returns 0
T3C24 000:372.907 JLINK_WriteReg(R6, 0x00000000)
T3C24 000:372.919 - 0.018ms returns 0
T3C24 000:372.932 JLINK_WriteReg(R7, 0x00000000)
T3C24 000:372.944 - 0.017ms returns 0
T3C24 000:372.957 JLINK_WriteReg(R8, 0x00000000)
T3C24 000:372.979 - 0.027ms returns 0
T3C24 000:372.992 JLINK_WriteReg(R9, 0x20000160)
T3C24 000:373.004 - 0.017ms returns 0
T3C24 000:373.017 JLINK_WriteReg(R10, 0x00000000)
T3C24 000:373.029 - 0.017ms returns 0
T3C24 000:373.042 JLINK_WriteReg(R11, 0x00000000)
T3C24 000:373.054 - 0.017ms returns 0
T3C24 000:373.067 JLINK_WriteReg(R12, 0x00000000)
T3C24 000:373.079 - 0.017ms returns 0
T3C24 000:373.092 JLINK_WriteReg(R13 (SP), 0x20001000)
T3C24 000:373.104 - 0.018ms returns 0
T3C24 000:373.117 JLINK_WriteReg(R14, 0x20000001)
T3C24 000:373.129 - 0.017ms returns 0
T3C24 000:373.142 JLINK_WriteReg(R15 (PC), 0x20000038)
T3C24 000:373.156 - 0.020ms returns 0
T3C24 000:373.170 JLINK_WriteReg(XPSR, 0x01000000)
T3C24 000:373.181 - 0.017ms returns 0
T3C24 000:373.194 JLINK_WriteReg(MSP, 0x20001000)
T3C24 000:373.206 - 0.017ms returns 0
T3C24 000:373.219 JLINK_WriteReg(PSP, 0x20001000)
T3C24 000:373.234 - 0.022ms returns 0
T3C24 000:373.249 JLINK_WriteReg(CFBP, 0x00000000)
T3C24 000:373.261 - 0.017ms returns 0
T3C24 000:373.274 JLINK_SetBPEx(Addr = 0x20000000, Type = 0xFFFFFFF2)
T3C24 000:373.291   CPU_ReadMem(2 bytes @ 0x20000000)
T3C24 000:373.815 - 0.551ms returns 0x00000001
T3C24 000:373.836 JLINK_Go()
T3C24 000:373.852   CPU_WriteMem(2 bytes @ 0x20000000)
T3C24 000:374.526   CPU_ReadMem(4 bytes @ 0xE0001000)
T3C24 000:375.172   CPU_WriteMem(4 bytes @ 0xE0002008)
T3C24 000:375.194   CPU_WriteMem(4 bytes @ 0xE000200C)
T3C24 000:375.212   CPU_WriteMem(4 bytes @ 0xE0002010)
T3C24 000:375.229   CPU_WriteMem(4 bytes @ 0xE0002014)
T3C24 000:375.247   CPU_WriteMem(4 bytes @ 0xE0002018)
T3C24 000:375.265   CPU_WriteMem(4 bytes @ 0xE000201C)
T3C24 000:377.711   CPU_WriteMem(4 bytes @ 0xE0001004)
T3C24 000:383.764 - 9.941ms
T3C24 000:383.788 JLINK_IsHalted()
T3C24 000:388.698   CPU_ReadMem(2 bytes @ 0x20000000)
T3C24 000:389.887 - 6.120ms returns TRUE
T3C24 000:389.921 JLINK_ReadReg(R15 (PC))
T3C24 000:389.937 - 0.022ms returns 0x20000000
T3C24 000:389.951 JLINK_ClrBPEx(BPHandle = 0x00000001)
T3C24 000:389.964 - 0.018ms returns 0x00
T3C24 000:389.978 JLINK_ReadReg(R0)
T3C24 000:389.991 - 0.018ms returns 0x00000000
T3C24 000:390.290 JLINK_HasError()
T3C24 000:390.310 JLINK_WriteReg(R0, 0x08000000)
T3C24 000:390.324 - 0.020ms returns 0
T3C24 000:390.338 JLINK_WriteReg(R1, 0x00B71B00)
T3C24 000:390.350 - 0.018ms returns 0
T3C24 000:390.363 JLINK_WriteReg(R2, 0x00000001)
T3C24 000:390.375 - 0.017ms returns 0
T3C24 000:390.388 JLINK_WriteReg(R3, 0x00000000)
T3C24 000:390.400 - 0.017ms returns 0
T3C24 000:390.413 JLINK_WriteReg(R4, 0x00000000)
T3C24 000:390.425 - 0.017ms returns 0
T3C24 000:390.438 JLINK_WriteReg(R5, 0x00000000)
T3C24 000:390.450 - 0.017ms returns 0
T3C24 000:390.463 JLINK_WriteReg(R6, 0x00000000)
T3C24 000:390.475 - 0.017ms returns 0
T3C24 000:390.488 JLINK_WriteReg(R7, 0x00000000)
T3C24 000:390.500 - 0.017ms returns 0
T3C24 000:390.513 JLINK_WriteReg(R8, 0x00000000)
T3C24 000:390.525 - 0.017ms returns 0
T3C24 000:390.538 JLINK_WriteReg(R9, 0x20000160)
T3C24 000:390.552 - 0.019ms returns 0
T3C24 000:390.565 JLINK_WriteReg(R10, 0x00000000)
T3C24 000:390.577 - 0.017ms returns 0
T3C24 000:390.590 JLINK_WriteReg(R11, 0x00000000)
T3C24 000:390.602 - 0.017ms returns 0
T3C24 000:390.615 JLINK_WriteReg(R12, 0x00000000)
T3C24 000:390.627 - 0.017ms returns 0
T3C24 000:390.640 JLINK_WriteReg(R13 (SP), 0x20001000)
T3C24 000:390.652 - 0.018ms returns 0
T3C24 000:390.665 JLINK_WriteReg(R14, 0x20000001)
T3C24 000:390.677 - 0.017ms returns 0
T3C24 000:390.690 JLINK_WriteReg(R15 (PC), 0x2000007C)
T3C24 000:390.702 - 0.017ms returns 0
T3C24 000:390.716 JLINK_WriteReg(XPSR, 0x01000000)
T3C24 000:390.727 - 0.017ms returns 0
T3C24 000:390.741 JLINK_WriteReg(MSP, 0x20001000)
T3C24 000:390.752 - 0.017ms returns 0
T3C24 000:390.766 JLINK_WriteReg(PSP, 0x20001000)
T3C24 000:390.778 - 0.017ms returns 0
T3C24 000:390.791 JLINK_WriteReg(CFBP, 0x00000000)
T3C24 000:390.802 - 0.017ms returns 0
T3C24 000:390.816 JLINK_SetBPEx(Addr = 0x20000000, Type = 0xFFFFFFF2)
T3C24 000:390.829 - 0.018ms returns 0x00000002
T3C24 000:390.842 JLINK_Go()
T3C24 000:390.861   CPU_ReadMem(4 bytes @ 0xE0001000)
T3C24 000:397.080 - 6.258ms
T3C24 000:397.115 JLINK_IsHalted()
T3C24 000:397.873 - 0.774ms returns FALSE
T3C24 000:397.904 JLINK_HasError()
T3C24 000:410.194 JLINK_IsHalted()
T3C24 000:410.970 - 0.787ms returns FALSE
T3C24 000:410.992 JLINK_HasError()
T3C24 000:412.318 JLINK_IsHalted()
T3C24 000:413.632 - 1.336ms returns FALSE
T3C24 000:413.667 JLINK_HasError()
T3C24 000:415.751 JLINK_IsHalted()
T3C24 000:416.961 - 1.231ms returns FALSE
T3C24 000:416.996 JLINK_HasError()
T3C24 000:418.274 JLINK_IsHalted()
T3C24 000:419.004 - 0.748ms returns FALSE
T3C24 000:419.054 JLINK_HasError()
T3C24 000:423.091 JLINK_IsHalted()
T3C24 000:427.869   CPU_ReadMem(2 bytes @ 0x20000000)
T3C24 000:428.814 - 5.769ms returns TRUE
T3C24 000:428.913 JLINK_ReadReg(R15 (PC))
T3C24 000:428.987 - 0.108ms returns 0x20000000
T3C24 000:429.062 JLINK_ClrBPEx(BPHandle = 0x00000002)
T3C24 000:429.119 - 0.083ms returns 0x00
T3C24 000:429.184 JLINK_ReadReg(R0)
T3C24 000:429.239 - 0.081ms returns 0x00000000
T3C24 000:485.054 JLINK_HasError()
T3C24 000:485.158 JLINK_WriteReg(R0, 0x00000001)
T3C24 000:485.225 - 0.093ms returns 0
T3C24 000:485.285 JLINK_WriteReg(R1, 0x00B71B00)
T3C24 000:485.339 - 0.079ms returns 0
T3C24 000:485.398 JLINK_WriteReg(R2, 0x00000001)
T3C24 000:485.451 - 0.078ms returns 0
T3C24 000:485.509 JLINK_WriteReg(R3, 0x00000000)
T3C24 000:485.569 - 0.085ms returns 0
T3C24 000:485.627 JLINK_WriteReg(R4, 0x00000000)
T3C24 000:485.679 - 0.077ms returns 0
T3C24 000:485.737 JLINK_WriteReg(R5, 0x00000000)
T3C24 000:485.789 - 0.077ms returns 0
T3C24 000:485.847 JLINK_WriteReg(R6, 0x00000000)
T3C24 000:485.899 - 0.077ms returns 0
T3C24 000:485.957 JLINK_WriteReg(R7, 0x00000000)
T3C24 000:486.009 - 0.077ms returns 0
T3C24 000:486.067 JLINK_WriteReg(R8, 0x00000000)
T3C24 000:486.120 - 0.078ms returns 0
T3C24 000:486.178 JLINK_WriteReg(R9, 0x20000160)
T3C24 000:486.235 - 0.083ms returns 0
T3C24 000:486.294 JLINK_WriteReg(R10, 0x00000000)
T3C24 000:486.349 - 0.080ms returns 0
T3C24 000:486.409 JLINK_WriteReg(R11, 0x00000000)
T3C24 000:486.462 - 0.078ms returns 0
T3C24 000:486.520 JLINK_WriteReg(R12, 0x00000000)
T3C24 000:486.576 - 0.081ms returns 0
T3C24 000:486.635 JLINK_WriteReg(R13 (SP), 0x20001000)
T3C24 000:486.689 - 0.080ms returns 0
T3C24 000:486.747 JLINK_WriteReg(R14, 0x20000001)
T3C24 000:486.800 - 0.077ms returns 0
T3C24 000:486.858 JLINK_WriteReg(R15 (PC), 0x2000006A)
T3C24 000:486.911 - 0.078ms returns 0
T3C24 000:486.969 JLINK_WriteReg(XPSR, 0x01000000)
T3C24 000:487.021 - 0.078ms returns 0
T3C24 000:487.079 JLINK_WriteReg(MSP, 0x20001000)
T3C24 000:487.131 - 0.077ms returns 0
T3C24 000:487.189 JLINK_WriteReg(PSP, 0x20001000)
T3C24 000:487.241 - 0.077ms returns 0
T3C24 000:487.299 JLINK_WriteReg(CFBP, 0x00000000)
T3C24 000:487.351 - 0.077ms returns 0
T3C24 000:487.410 JLINK_SetBPEx(Addr = 0x20000000, Type = 0xFFFFFFF2)
T3C24 000:487.466 - 0.082ms returns 0x00000003
T3C24 000:487.525 JLINK_Go()
T3C24 000:487.605   CPU_ReadMem(4 bytes @ 0xE0001000)
T3C24 000:493.945 - 6.478ms
T3C24 000:494.050 JLINK_IsHalted()
T3C24 000:499.352   CPU_ReadMem(2 bytes @ 0x20000000)
T3C24 000:500.297 - 6.294ms returns TRUE
T3C24 000:500.390 JLINK_ReadReg(R15 (PC))
T3C24 000:500.454 - 0.097ms returns 0x20000000
T3C24 000:500.522 JLINK_ClrBPEx(BPHandle = 0x00000003)
T3C24 000:500.576 - 0.081ms returns 0x00
T3C24 000:500.637 JLINK_ReadReg(R0)
T3C24 000:500.691 - 0.080ms returns 0x00000000
T3C24 000:516.446 JLINK_WriteMem(0x20000000, 0x164 Bytes, ...)
T3C24 000:516.501   Data:  00 BE 0A E0 0D 78 2D 06 68 40 08 24 40 00 00 D3 ...
T3C24 000:516.577   CPU_WriteMem(356 bytes @ 0x20000000)
T3C24 000:520.911 - 4.504ms returns 0x164
T3C24 000:521.021 JLINK_HasError()
T3C24 000:521.059 JLINK_WriteReg(R0, 0x08000000)
T3C24 000:521.093 - 0.049ms returns 0
T3C24 000:521.126 JLINK_WriteReg(R1, 0x00B71B00)
T3C24 000:521.155 - 0.043ms returns 0
T3C24 000:521.187 JLINK_WriteReg(R2, 0x00000002)
T3C24 000:521.215 - 0.041ms returns 0
T3C24 000:521.246 JLINK_WriteReg(R3, 0x00000000)
T3C24 000:521.274 - 0.041ms returns 0
T3C24 000:521.305 JLINK_WriteReg(R4, 0x00000000)
T3C24 000:521.333 - 0.042ms returns 0
T3C24 000:521.365 JLINK_WriteReg(R5, 0x00000000)
T3C24 000:521.393 - 0.042ms returns 0
T3C24 000:521.424 JLINK_WriteReg(R6, 0x00000000)
T3C24 000:521.457 - 0.046ms returns 0
T3C24 000:521.489 JLINK_WriteReg(R7, 0x00000000)
T3C24 000:521.517 - 0.041ms returns 0
T3C24 000:521.548 JLINK_WriteReg(R8, 0x00000000)
T3C24 000:521.576 - 0.042ms returns 0
T3C24 000:521.608 JLINK_WriteReg(R9, 0x20000160)
T3C24 000:521.636 - 0.042ms returns 0
T3C24 000:521.667 JLINK_WriteReg(R10, 0x00000000)
T3C24 000:521.695 - 0.042ms returns 0
T3C24 000:521.727 JLINK_WriteReg(R11, 0x00000000)
T3C24 000:521.755 - 0.042ms returns 0
T3C24 000:521.786 JLINK_WriteReg(R12, 0x00000000)
T3C24 000:521.825 - 0.053ms returns 0
T3C24 000:521.857 JLINK_WriteReg(R13 (SP), 0x20001000)
T3C24 000:521.887 - 0.043ms returns 0
T3C24 000:521.919 JLINK_WriteReg(R14, 0x20000001)
T3C24 000:521.947 - 0.042ms returns 0
T3C24 000:521.978 JLINK_WriteReg(R15 (PC), 0x20000038)
T3C24 000:522.007 - 0.055ms returns 0
T3C24 000:522.049 JLINK_WriteReg(XPSR, 0x01000000)
T3C24 000:522.071 - 0.033ms returns 0
T3C24 000:522.096 JLINK_WriteReg(MSP, 0x20001000)
T3C24 000:522.119 - 0.033ms returns 0
T3C24 000:522.144 JLINK_WriteReg(PSP, 0x20001000)
T3C24 000:522.167 - 0.033ms returns 0
T3C24 000:522.192 JLINK_WriteReg(CFBP, 0x00000000)
T3C24 000:522.214 - 0.033ms returns 0
T3C24 000:522.239 JLINK_SetBPEx(Addr = 0x20000000, Type = 0xFFFFFFF2)
T3C24 000:522.270   CPU_ReadMem(2 bytes @ 0x20000000)
T3C24 000:523.356 - 1.153ms returns 0x00000004
T3C24 000:523.415 JLINK_Go()
T3C24 000:523.447   CPU_WriteMem(2 bytes @ 0x20000000)
T3C24 000:524.162   CPU_ReadMem(4 bytes @ 0xE0001000)
T3C24 000:530.205 - 6.808ms
T3C24 000:530.235 JLINK_IsHalted()
T3C24 000:535.009   CPU_ReadMem(2 bytes @ 0x20000000)
T3C24 000:536.025 - 5.800ms returns TRUE
T3C24 000:536.049 JLINK_ReadReg(R15 (PC))
T3C24 000:536.065 - 0.021ms returns 0x20000000
T3C24 000:536.079 JLINK_ClrBPEx(BPHandle = 0x00000004)
T3C24 000:536.092 - 0.019ms returns 0x00
T3C24 000:536.107 JLINK_ReadReg(R0)
T3C24 000:536.120 - 0.018ms returns 0x00000000
T3C24 000:536.409 JLINK_WriteMem(0x20000164, 0x29C Bytes, ...)
T3C24 000:536.426   Data:  20 09 00 20 79 02 00 08 7D 02 00 08 7F 02 00 08 ...
T3C24 000:536.452   CPU_WriteMem(668 bytes @ 0x20000164)
T3C24 000:543.691 - 7.293ms returns 0x29C
T3C24 000:543.714 JLINK_WriteMem(0x20000400, 0x164 Bytes, ...)
T3C24 000:543.727   Data:  31 01 00 08 20 03 00 20 20 09 00 20 20 05 00 20 ...
T3C24 000:543.751   CPU_WriteMem(356 bytes @ 0x20000400)
T3C24 000:548.155 - 4.452ms returns 0x164
T3C24 000:548.177 JLINK_HasError()
T3C24 000:548.192 JLINK_WriteReg(R0, 0x08000000)
T3C24 000:548.207 - 0.021ms returns 0
T3C24 000:548.221 JLINK_WriteReg(R1, 0x00000400)
T3C24 000:548.234 - 0.018ms returns 0
T3C24 000:548.247 JLINK_WriteReg(R2, 0x20000164)
T3C24 000:548.260 - 0.018ms returns 0
T3C24 000:548.274 JLINK_WriteReg(R3, 0x00000000)
T3C24 000:548.286 - 0.018ms returns 0
T3C24 000:548.299 JLINK_WriteReg(R4, 0x00000000)
T3C24 000:548.311 - 0.018ms returns 0
T3C24 000:548.325 JLINK_WriteReg(R5, 0x00000000)
T3C24 000:548.337 - 0.018ms returns 0
T3C24 000:548.353 JLINK_WriteReg(R6, 0x00000000)
T3C24 000:548.365 - 0.018ms returns 0
T3C24 000:548.379 JLINK_WriteReg(R7, 0x00000000)
T3C24 000:548.391 - 0.018ms returns 0
T3C24 000:548.405 JLINK_WriteReg(R8, 0x00000000)
T3C24 000:548.417 - 0.018ms returns 0
T3C24 000:548.430 JLINK_WriteReg(R9, 0x20000160)
T3C24 000:548.442 - 0.018ms returns 0
T3C24 000:548.456 JLINK_WriteReg(R10, 0x00000000)
T3C24 000:548.468 - 0.018ms returns 0
T3C24 000:548.481 JLINK_WriteReg(R11, 0x00000000)
T3C24 000:548.493 - 0.018ms returns 0
T3C24 000:548.507 JLINK_WriteReg(R12, 0x00000000)
T3C24 000:548.519 - 0.018ms returns 0
T3C24 000:548.532 JLINK_WriteReg(R13 (SP), 0x20001000)
T3C24 000:548.545 - 0.018ms returns 0
T3C24 000:548.558 JLINK_WriteReg(R14, 0x20000001)
T3C24 000:548.571 - 0.018ms returns 0
T3C24 000:548.584 JLINK_WriteReg(R15 (PC), 0x200000F4)
T3C24 000:548.596 - 0.018ms returns 0
T3C24 000:548.610 JLINK_WriteReg(XPSR, 0x01000000)
T3C24 000:548.622 - 0.018ms returns 0
T3C24 000:548.635 JLINK_WriteReg(MSP, 0x20001000)
T3C24 000:548.647 - 0.017ms returns 0
T3C24 000:548.661 JLINK_WriteReg(PSP, 0x20001000)
T3C24 000:548.673 - 0.018ms returns 0
T3C24 000:548.686 JLINK_WriteReg(CFBP, 0x00000000)
T3C24 000:548.698 - 0.018ms returns 0
T3C24 000:548.712 JLINK_SetBPEx(Addr = 0x20000000, Type = 0xFFFFFFF2)
T3C24 000:548.725 - 0.019ms returns 0x00000005
T3C24 000:548.738 JLINK_Go()
T3C24 000:548.756   CPU_ReadMem(4 bytes @ 0xE0001000)
T3C24 000:554.709 - 5.982ms
T3C24 000:554.731 JLINK_IsHalted()
T3C24 000:555.710 - 0.989ms returns FALSE
T3C24 000:555.734 JLINK_HasError()
T3C24 000:561.352 JLINK_IsHalted()
T3C24 000:562.094 - 0.752ms returns FALSE
T3C24 000:562.118 JLINK_HasError()
T3C24 000:563.644 JLINK_IsHalted()
T3C24 000:564.438 - 0.804ms returns FALSE
T3C24 000:564.459 JLINK_HasError()
T3C24 000:565.652 JLINK_IsHalted()
T3C24 000:566.587 - 0.945ms returns FALSE
T3C24 000:566.607 JLINK_HasError()
T3C24 000:568.621 JLINK_IsHalted()
T3C24 000:569.495 - 0.884ms returns FALSE
T3C24 000:569.516 JLINK_HasError()
T3C24 000:571.616 JLINK_IsHalted()
T3C24 000:572.486 - 0.880ms returns FALSE
T3C24 000:572.507 JLINK_HasError()
T3C24 000:574.363 JLINK_IsHalted()
T3C24 000:575.043 - 0.690ms returns FALSE
T3C24 000:575.063 JLINK_HasError()
T3C24 000:576.620 JLINK_IsHalted()
T3C24 000:577.345 - 0.751ms returns FALSE
T3C24 000:577.367 JLINK_HasError()
T3C24 000:579.415 JLINK_IsHalted()
T3C24 000:580.157 - 0.752ms returns FALSE
T3C24 000:580.178 JLINK_HasError()
T3C24 000:581.306 JLINK_IsHalted()
T3C24 000:581.908 - 0.613ms returns FALSE
T3C24 000:581.929 JLINK_HasError()
T3C24 000:583.630 JLINK_IsHalted()
T3C24 000:584.362 - 0.742ms returns FALSE
T3C24 000:584.383 JLINK_HasError()
T3C24 000:586.600 JLINK_IsHalted()
T3C24 000:591.848   CPU_ReadMem(2 bytes @ 0x20000000)
T3C24 000:592.903 - 6.316ms returns TRUE
T3C24 000:592.933 JLINK_ReadReg(R15 (PC))
T3C24 000:592.950 - 0.024ms returns 0x20000000
T3C24 000:593.037 JLINK_ClrBPEx(BPHandle = 0x00000005)
T3C24 000:593.059 - 0.029ms returns 0x00
T3C24 000:593.076 JLINK_ReadReg(R0)
T3C24 000:593.091 - 0.021ms returns 0x00000000
T3C24 000:593.630 JLINK_WriteMem(0x20000164, 0x29C Bytes, ...)
T3C24 000:593.654   Data:  02 E0 49 07 04 D5 11 A5 01 24 01 E0 00 F0 10 FA ...
T3C24 000:593.683   CPU_WriteMem(668 bytes @ 0x20000164)
T3C24 000:601.110 - 7.493ms returns 0x29C
T3C24 000:601.136 JLINK_WriteMem(0x20000400, 0x164 Bytes, ...)
T3C24 000:601.151   Data:  52 1C 07 E0 00 20 10 BD 10 F8 01 3B 11 F8 01 4B ...
T3C24 000:601.179   CPU_WriteMem(356 bytes @ 0x20000400)
T3C24 000:605.486 - 4.363ms returns 0x164
T3C24 000:605.514 JLINK_HasError()
T3C24 000:605.533 JLINK_WriteReg(R0, 0x08000400)
T3C24 000:605.552 - 0.027ms returns 0
T3C24 000:605.570 JLINK_WriteReg(R1, 0x00000400)
T3C24 000:605.587 - 0.024ms returns 0
T3C24 000:605.605 JLINK_WriteReg(R2, 0x20000164)
T3C24 000:605.621 - 0.023ms returns 0
T3C24 000:605.638 JLINK_WriteReg(R3, 0x00000000)
T3C24 000:605.654 - 0.023ms returns 0
T3C24 000:605.671 JLINK_WriteReg(R4, 0x00000000)
T3C24 000:605.687 - 0.023ms returns 0
T3C24 000:605.705 JLINK_WriteReg(R5, 0x00000000)
T3C24 000:605.721 - 0.023ms returns 0
T3C24 000:605.739 JLINK_WriteReg(R6, 0x00000000)
T3C24 000:605.755 - 0.023ms returns 0
T3C24 000:605.772 JLINK_WriteReg(R7, 0x00000000)
T3C24 000:605.788 - 0.023ms returns 0
T3C24 000:605.805 JLINK_WriteReg(R8, 0x00000000)
T3C24 000:605.821 - 0.023ms returns 0
T3C24 000:605.839 JLINK_WriteReg(R9, 0x20000160)
T3C24 000:605.855 - 0.023ms returns 0
T3C24 000:605.872 JLINK_WriteReg(R10, 0x00000000)
T3C24 000:605.888 - 0.023ms returns 0
T3C24 000:605.906 JLINK_WriteReg(R11, 0x00000000)
T3C24 000:605.922 - 0.024ms returns 0
T3C24 000:605.940 JLINK_WriteReg(R12, 0x00000000)
T3C24 000:605.956 - 0.023ms returns 0
T3C24 000:605.974 JLINK_WriteReg(R13 (SP), 0x20001000)
T3C24 000:605.991 - 0.024ms returns 0
T3C24 000:606.008 JLINK_WriteReg(R14, 0x20000001)
T3C24 000:606.024 - 0.024ms returns 0
T3C24 000:606.042 JLINK_WriteReg(R15 (PC), 0x200000F4)
T3C24 000:606.058 - 0.024ms returns 0
T3C24 000:606.076 JLINK_WriteReg(XPSR, 0x01000000)
T3C24 000:606.092 - 0.023ms returns 0
T3C24 000:606.110 JLINK_WriteReg(MSP, 0x20001000)
T3C24 000:606.126 - 0.024ms returns 0
T3C24 000:606.144 JLINK_WriteReg(PSP, 0x20001000)
T3C24 000:606.160 - 0.023ms returns 0
T3C24 000:606.177 JLINK_WriteReg(CFBP, 0x00000000)
T3C24 000:606.193 - 0.024ms returns 0
T3C24 000:606.211 JLINK_SetBPEx(Addr = 0x20000000, Type = 0xFFFFFFF2)
T3C24 000:606.229 - 0.025ms returns 0x00000006
T3C24 000:606.247 JLINK_Go()
T3C24 000:606.270   CPU_ReadMem(4 bytes @ 0xE0001000)
T3C24 000:612.794 - 6.578ms
T3C24 000:612.845 JLINK_IsHalted()
T3C24 000:613.511 - 0.686ms returns FALSE
T3C24 000:613.549 JLINK_HasError()
T3C24 000:615.492 JLINK_IsHalted()
T3C24 000:616.194 - 0.720ms returns FALSE
T3C24 000:616.229 JLINK_HasError()
T3C24 000:617.930 JLINK_IsHalted()
T3C24 000:619.067 - 1.169ms returns FALSE
T3C24 000:619.127 JLINK_HasError()
T3C24 000:620.901 JLINK_IsHalted()
T3C24 000:621.681 - 0.803ms returns FALSE
T3C24 000:621.724 JLINK_HasError()
T3C24 000:623.496 JLINK_IsHalted()
T3C24 000:624.303 - 0.833ms returns FALSE
T3C24 000:624.353 JLINK_HasError()
T3C24 000:625.564 JLINK_IsHalted()
T3C24 000:626.380 - 0.842ms returns FALSE
T3C24 000:626.429 JLINK_HasError()
T3C24 000:628.569 JLINK_IsHalted()
T3C24 000:629.373 - 0.836ms returns FALSE
T3C24 000:629.433 JLINK_HasError()
T3C24 000:631.459 JLINK_IsHalted()
T3C24 000:632.299 - 0.869ms returns FALSE
T3C24 000:632.355 JLINK_HasError()
T3C24 000:634.458 JLINK_IsHalted()
T3C24 000:635.324 - 0.901ms returns FALSE
T3C24 000:635.398 JLINK_HasError()
T3C24 000:637.444 JLINK_IsHalted()
T3C24 000:638.170 - 0.762ms returns FALSE
T3C24 000:638.240 JLINK_HasError()
T3C24 000:644.822 JLINK_IsHalted()
T3C24 000:650.779   CPU_ReadMem(2 bytes @ 0x20000000)
T3C24 000:651.711 - 6.939ms returns TRUE
T3C24 000:651.799 JLINK_ReadReg(R15 (PC))
T3C24 000:651.849 - 0.070ms returns 0x20000000
T3C24 000:651.896 JLINK_ClrBPEx(BPHandle = 0x00000006)
T3C24 000:651.938 - 0.061ms returns 0x00
T3C24 000:651.984 JLINK_ReadReg(R0)
T3C24 000:652.025 - 0.060ms returns 0x00000000
T3C24 000:654.933 JLINK_WriteMem(0x20000164, 0x29C Bytes, ...)
T3C24 000:654.998   Data:  00 80 BD E8 1C 40 70 47 10 B5 00 F0 C3 F9 00 68 ...
T3C24 000:655.079   CPU_WriteMem(668 bytes @ 0x20000164)
T3C24 000:662.725 - 7.843ms returns 0x29C
T3C24 000:662.813 JLINK_WriteMem(0x20000400, 0x164 Bytes, ...)
T3C24 000:662.856   Data:  02 E0 49 07 01 D5 0E A6 01 25 11 46 00 24 08 F1 ...
T3C24 000:662.937   CPU_WriteMem(356 bytes @ 0x20000400)
T3C24 000:667.419 - 4.657ms returns 0x164
T3C24 000:667.510 JLINK_HasError()
T3C24 000:667.561 JLINK_WriteReg(R0, 0x08000800)
T3C24 000:667.611 - 0.070ms returns 0
T3C24 000:667.656 JLINK_WriteReg(R1, 0x00000400)
T3C24 000:667.697 - 0.060ms returns 0
T3C24 000:667.741 JLINK_WriteReg(R2, 0x20000164)
T3C24 000:667.781 - 0.059ms returns 0
T3C24 000:667.825 JLINK_WriteReg(R3, 0x00000000)
T3C24 000:667.864 - 0.058ms returns 0
T3C24 000:667.908 JLINK_WriteReg(R4, 0x00000000)
T3C24 000:667.947 - 0.058ms returns 0
T3C24 000:667.991 JLINK_WriteReg(R5, 0x00000000)
T3C24 000:668.030 - 0.058ms returns 0
T3C24 000:668.074 JLINK_WriteReg(R6, 0x00000000)
T3C24 000:668.113 - 0.058ms returns 0
T3C24 000:668.157 JLINK_WriteReg(R7, 0x00000000)
T3C24 000:668.196 - 0.058ms returns 0
T3C24 000:668.239 JLINK_WriteReg(R8, 0x00000000)
T3C24 000:668.279 - 0.058ms returns 0
T3C24 000:668.322 JLINK_WriteReg(R9, 0x20000160)
T3C24 000:668.367 - 0.064ms returns 0
T3C24 000:668.411 JLINK_WriteReg(R10, 0x00000000)
T3C24 000:668.451 - 0.071ms returns 0
T3C24 000:668.529 JLINK_WriteReg(R11, 0x00000000)
T3C24 000:668.580 - 0.071ms returns 0
T3C24 000:668.625 JLINK_WriteReg(R12, 0x00000000)
T3C24 000:668.665 - 0.058ms returns 0
T3C24 000:668.708 JLINK_WriteReg(R13 (SP), 0x20001000)
T3C24 000:668.750 - 0.060ms returns 0
T3C24 000:668.794 JLINK_WriteReg(R14, 0x20000001)
T3C24 000:668.833 - 0.058ms returns 0
T3C24 000:668.876 JLINK_WriteReg(R15 (PC), 0x200000F4)
T3C24 000:668.916 - 0.059ms returns 0
T3C24 000:668.960 JLINK_WriteReg(XPSR, 0x01000000)
T3C24 000:668.999 - 0.058ms returns 0
T3C24 000:669.042 JLINK_WriteReg(MSP, 0x20001000)
T3C24 000:669.081 - 0.058ms returns 0
T3C24 000:669.125 JLINK_WriteReg(PSP, 0x20001000)
T3C24 000:669.164 - 0.058ms returns 0
T3C24 000:669.208 JLINK_WriteReg(CFBP, 0x00000000)
T3C24 000:669.247 - 0.058ms returns 0
T3C24 000:669.291 JLINK_SetBPEx(Addr = 0x20000000, Type = 0xFFFFFFF2)
T3C24 000:669.338 - 0.066ms returns 0x00000007
T3C24 000:669.383 JLINK_Go()
T3C24 000:669.570   CPU_ReadMem(4 bytes @ 0xE0001000)
T3C24 000:676.550 - 7.228ms
T3C24 000:676.659 JLINK_IsHalted()
T3C24 000:677.887 - 1.279ms returns FALSE
T3C24 000:677.985 JLINK_HasError()
T3C24 000:682.672 JLINK_IsHalted()
T3C24 000:683.526 - 0.893ms returns FALSE
T3C24 000:683.599 JLINK_HasError()
T3C24 000:685.338 JLINK_IsHalted()
T3C24 000:686.228 - 0.942ms returns FALSE
T3C24 000:686.318 JLINK_HasError()
T3C24 000:687.668 JLINK_IsHalted()
T3C24 000:688.845 - 1.228ms returns FALSE
T3C24 000:688.934 JLINK_HasError()
T3C24 000:690.658 JLINK_IsHalted()
T3C24 000:691.840 - 1.234ms returns FALSE
T3C24 000:691.930 JLINK_HasError()
T3C24 000:693.342 JLINK_IsHalted()
T3C24 000:694.143 - 0.839ms returns FALSE
T3C24 000:694.217 JLINK_HasError()
T3C24 000:695.616 JLINK_IsHalted()
T3C24 000:696.849 - 1.285ms returns FALSE
T3C24 000:696.939 JLINK_HasError()
T3C24 000:698.645 JLINK_IsHalted()
T3C24 000:699.945 - 1.350ms returns FALSE
T3C24 000:700.034 JLINK_HasError()
T3C24 000:701.575 JLINK_IsHalted()
T3C24 000:702.824 - 1.300ms returns FALSE
T3C24 000:702.913 JLINK_HasError()
T3C24 000:704.271 JLINK_IsHalted()
T3C24 000:705.381 - 1.161ms returns FALSE
T3C24 000:705.470 JLINK_HasError()
T3C24 000:707.585 JLINK_IsHalted()
T3C24 000:712.767   CPU_ReadMem(2 bytes @ 0x20000000)
T3C24 000:713.555 - 6.006ms returns TRUE
T3C24 000:713.626 JLINK_ReadReg(R15 (PC))
T3C24 000:713.674 - 0.068ms returns 0x20000000
T3C24 000:713.721 JLINK_ClrBPEx(BPHandle = 0x00000007)
T3C24 000:713.762 - 0.061ms returns 0x00
T3C24 000:713.808 JLINK_ReadReg(R0)
T3C24 000:713.848 - 0.060ms returns 0x00000000
T3C24 000:715.295 JLINK_WriteMem(0x20000164, 0x29C Bytes, ...)
T3C24 000:715.352   Data:  44 EA 90 74 44 EB 01 04 6D 19 44 EB 04 04 52 1B ...
T3C24 000:715.427   CPU_WriteMem(668 bytes @ 0x20000164)
T3C24 000:723.205 - 7.945ms returns 0x29C
T3C24 000:723.274 JLINK_WriteMem(0x20000400, 0x164 Bytes, ...)
T3C24 000:723.317   Data:  03 D4 C0 F1 FF 36 09 F1 01 05 A5 EB 09 00 2B E0 ...
T3C24 000:723.391   CPU_WriteMem(356 bytes @ 0x20000400)
T3C24 000:728.103 - 4.869ms returns 0x164
T3C24 000:728.178 JLINK_HasError()
T3C24 000:728.226 JLINK_WriteReg(R0, 0x08000C00)
T3C24 000:728.274 - 0.067ms returns 0
T3C24 000:728.320 JLINK_WriteReg(R1, 0x00000400)
T3C24 000:728.360 - 0.060ms returns 0
T3C24 000:728.405 JLINK_WriteReg(R2, 0x20000164)
T3C24 000:728.445 - 0.058ms returns 0
T3C24 000:728.488 JLINK_WriteReg(R3, 0x00000000)
T3C24 000:728.527 - 0.058ms returns 0
T3C24 000:728.571 JLINK_WriteReg(R4, 0x00000000)
T3C24 000:728.611 - 0.059ms returns 0
T3C24 000:728.656 JLINK_WriteReg(R5, 0x00000000)
T3C24 000:728.696 - 0.059ms returns 0
T3C24 000:728.740 JLINK_WriteReg(R6, 0x00000000)
T3C24 000:728.779 - 0.058ms returns 0
T3C24 000:728.822 JLINK_WriteReg(R7, 0x00000000)
T3C24 000:728.862 - 0.058ms returns 0
T3C24 000:728.905 JLINK_WriteReg(R8, 0x00000000)
T3C24 000:728.944 - 0.059ms returns 0
T3C24 000:728.989 JLINK_WriteReg(R9, 0x20000160)
T3C24 000:729.029 - 0.059ms returns 0
T3C24 000:729.073 JLINK_WriteReg(R10, 0x00000000)
T3C24 000:729.113 - 0.059ms returns 0
T3C24 000:729.168 JLINK_WriteReg(R11, 0x00000000)
T3C24 000:729.210 - 0.061ms returns 0
T3C24 000:729.261 JLINK_WriteReg(R12, 0x00000000)
T3C24 000:729.303 - 0.060ms returns 0
T3C24 000:729.351 JLINK_WriteReg(R13 (SP), 0x20001000)
T3C24 000:729.393 - 0.061ms returns 0
T3C24 000:729.442 JLINK_WriteReg(R14, 0x20000001)
T3C24 000:729.483 - 0.060ms returns 0
T3C24 000:729.530 JLINK_WriteReg(R15 (PC), 0x200000F4)
T3C24 000:729.572 - 0.060ms returns 0
T3C24 000:729.620 JLINK_WriteReg(XPSR, 0x01000000)
T3C24 000:729.661 - 0.059ms returns 0
T3C24 000:729.708 JLINK_WriteReg(MSP, 0x20001000)
T3C24 000:729.749 - 0.060ms returns 0
T3C24 000:729.798 JLINK_WriteReg(PSP, 0x20001000)
T3C24 000:729.838 - 0.060ms returns 0
T3C24 000:729.885 JLINK_WriteReg(CFBP, 0x00000000)
T3C24 000:729.926 - 0.060ms returns 0
T3C24 000:729.975 JLINK_SetBPEx(Addr = 0x20000000, Type = 0xFFFFFFF2)
T3C24 000:730.018 - 0.062ms returns 0x00000008
T3C24 000:730.067 JLINK_Go()
T3C24 000:730.136   CPU_ReadMem(4 bytes @ 0xE0001000)
T3C24 000:736.669 - 6.651ms
T3C24 000:736.762 JLINK_IsHalted()
T3C24 000:737.762 - 1.035ms returns FALSE
T3C24 000:737.839 JLINK_HasError()
T3C24 000:739.230 JLINK_IsHalted()
T3C24 000:740.274 - 1.080ms returns FALSE
T3C24 000:740.345 JLINK_HasError()
T3C24 000:742.228 JLINK_IsHalted()
T3C24 000:743.290 - 1.098ms returns FALSE
T3C24 000:743.362 JLINK_HasError()
T3C24 000:745.222 JLINK_IsHalted()
T3C24 000:746.258 - 1.073ms returns FALSE
T3C24 000:746.329 JLINK_HasError()
T3C24 000:748.189 JLINK_IsHalted()
T3C24 000:749.019 - 0.872ms returns FALSE
T3C24 000:749.109 JLINK_HasError()
T3C24 000:756.420 JLINK_IsHalted()
T3C24 000:757.341 - 0.931ms returns FALSE
T3C24 000:757.361 JLINK_HasError()
T3C24 000:759.411 JLINK_IsHalted()
T3C24 000:760.324 - 0.923ms returns FALSE
T3C24 000:760.345 JLINK_HasError()
T3C24 000:762.384 JLINK_IsHalted()
T3C24 000:763.567 - 1.197ms returns FALSE
T3C24 000:763.608 JLINK_HasError()
T3C24 000:765.423 JLINK_IsHalted()
T3C24 000:766.413 - 1.001ms returns FALSE
T3C24 000:766.434 JLINK_HasError()
T3C24 000:768.374 JLINK_IsHalted()
T3C24 000:773.444   CPU_ReadMem(2 bytes @ 0x20000000)
T3C24 000:774.404 - 6.041ms returns TRUE
T3C24 000:774.425 JLINK_ReadReg(R15 (PC))
T3C24 000:774.439 - 0.020ms returns 0x20000000
T3C24 000:774.454 JLINK_ClrBPEx(BPHandle = 0x00000008)
T3C24 000:774.466 - 0.018ms returns 0x00
T3C24 000:774.480 JLINK_ReadReg(R0)
T3C24 000:774.492 - 0.018ms returns 0x00000000
T3C24 000:774.912 JLINK_WriteMem(0x20000164, 0x29C Bytes, ...)
T3C24 000:774.928   Data:  00 F0 B4 F8 C0 68 01 68 40 5C D4 E9 01 21 90 47 ...
T3C24 000:774.952   CPU_WriteMem(668 bytes @ 0x20000164)
T3C24 000:782.188 - 7.291ms returns 0x29C
T3C24 000:782.215 JLINK_WriteMem(0x20000400, 0x164 Bytes, ...)
T3C24 000:782.228   Data:  F8 FA 03 AB 83 E8 07 00 6D 10 64 1C 00 2D E3 D1 ...
T3C24 000:782.253   CPU_WriteMem(356 bytes @ 0x20000400)
T3C24 000:786.403 - 4.199ms returns 0x164
T3C24 000:786.425 JLINK_HasError()
T3C24 000:786.440 JLINK_WriteReg(R0, 0x08001000)
T3C24 000:786.455 - 0.020ms returns 0
T3C24 000:786.469 JLINK_WriteReg(R1, 0x00000400)
T3C24 000:786.481 - 0.018ms returns 0
T3C24 000:786.495 JLINK_WriteReg(R2, 0x20000164)
T3C24 000:786.507 - 0.018ms returns 0
T3C24 000:786.521 JLINK_WriteReg(R3, 0x00000000)
T3C24 000:786.533 - 0.017ms returns 0
T3C24 000:786.546 JLINK_WriteReg(R4, 0x00000000)
T3C24 000:786.558 - 0.017ms returns 0
T3C24 000:786.571 JLINK_WriteReg(R5, 0x00000000)
T3C24 000:786.583 - 0.017ms returns 0
T3C24 000:786.596 JLINK_WriteReg(R6, 0x00000000)
T3C24 000:786.608 - 0.017ms returns 0
T3C24 000:786.621 JLINK_WriteReg(R7, 0x00000000)
T3C24 000:786.633 - 0.017ms returns 0
T3C24 000:786.646 JLINK_WriteReg(R8, 0x00000000)
T3C24 000:786.658 - 0.017ms returns 0
T3C24 000:786.671 JLINK_WriteReg(R9, 0x20000160)
T3C24 000:786.683 - 0.017ms returns 0
T3C24 000:786.696 JLINK_WriteReg(R10, 0x00000000)
T3C24 000:786.708 - 0.018ms returns 0
T3C24 000:786.722 JLINK_WriteReg(R11, 0x00000000)
T3C24 000:786.734 - 0.017ms returns 0
T3C24 000:786.747 JLINK_WriteReg(R12, 0x00000000)
T3C24 000:786.759 - 0.017ms returns 0
T3C24 000:786.772 JLINK_WriteReg(R13 (SP), 0x20001000)
T3C24 000:786.785 - 0.018ms returns 0
T3C24 000:786.798 JLINK_WriteReg(R14, 0x20000001)
T3C24 000:786.810 - 0.018ms returns 0
T3C24 000:786.824 JLINK_WriteReg(R15 (PC), 0x200000F4)
T3C24 000:786.836 - 0.018ms returns 0
T3C24 000:786.849 JLINK_WriteReg(XPSR, 0x01000000)
T3C24 000:786.861 - 0.018ms returns 0
T3C24 000:786.874 JLINK_WriteReg(MSP, 0x20001000)
T3C24 000:786.887 - 0.017ms returns 0
T3C24 000:786.900 JLINK_WriteReg(PSP, 0x20001000)
T3C24 000:786.912 - 0.018ms returns 0
T3C24 000:786.925 JLINK_WriteReg(CFBP, 0x00000000)
T3C24 000:786.937 - 0.017ms returns 0
T3C24 000:786.951 JLINK_SetBPEx(Addr = 0x20000000, Type = 0xFFFFFFF2)
T3C24 000:786.964 - 0.020ms returns 0x00000009
T3C24 000:786.979 JLINK_Go()
T3C24 000:786.996   CPU_ReadMem(4 bytes @ 0xE0001000)
T3C24 000:793.452 - 6.492ms
T3C24 000:793.487 JLINK_IsHalted()
T3C24 000:794.288 - 0.822ms returns FALSE
T3C24 000:794.326 JLINK_HasError()
T3C24 000:797.357 JLINK_IsHalted()
T3C24 000:798.141 - 0.798ms returns FALSE
T3C24 000:798.167 JLINK_HasError()
T3C24 000:800.004 JLINK_IsHalted()
T3C24 000:800.654 - 0.661ms returns FALSE
T3C24 000:800.676 JLINK_HasError()
T3C24 000:802.250 JLINK_IsHalted()
T3C24 000:802.872 - 0.632ms returns FALSE
T3C24 000:802.893 JLINK_HasError()
T3C24 000:805.309 JLINK_IsHalted()
T3C24 000:805.949 - 0.651ms returns FALSE
T3C24 000:805.970 JLINK_HasError()
T3C24 000:808.280 JLINK_IsHalted()
T3C24 000:809.484 - 1.230ms returns FALSE
T3C24 000:809.525 JLINK_HasError()
T3C24 000:810.944 JLINK_IsHalted()
T3C24 000:811.840 - 0.907ms returns FALSE
T3C24 000:811.863 JLINK_HasError()
T3C24 000:813.242 JLINK_IsHalted()
T3C24 000:813.844 - 0.613ms returns FALSE
T3C24 000:813.867 JLINK_HasError()
T3C24 000:815.184 JLINK_IsHalted()
T3C24 000:816.089 - 0.917ms returns FALSE
T3C24 000:816.113 JLINK_HasError()
T3C24 000:818.173 JLINK_IsHalted()
T3C24 000:819.105 - 0.945ms returns FALSE
T3C24 000:819.198 JLINK_HasError()
T3C24 000:820.959 JLINK_IsHalted()
T3C24 000:821.809 - 0.864ms returns FALSE
T3C24 000:821.836 JLINK_HasError()
T3C24 000:823.119 JLINK_IsHalted()
T3C24 000:824.082 - 0.990ms returns FALSE
T3C24 000:824.130 JLINK_HasError()
T3C24 000:826.086 JLINK_IsHalted()
T3C24 000:831.106   CPU_ReadMem(2 bytes @ 0x20000000)
T3C24 000:832.020 - 5.950ms returns TRUE
T3C24 000:832.053 JLINK_ReadReg(R15 (PC))
T3C24 000:832.076 - 0.033ms returns 0x20000000
T3C24 000:832.098 JLINK_ClrBPEx(BPHandle = 0x00000009)
T3C24 000:832.119 - 0.029ms returns 0x00
T3C24 000:832.140 JLINK_ReadReg(R0)
T3C24 000:832.160 - 0.029ms returns 0x00000000
T3C24 000:832.819 JLINK_WriteMem(0x20000164, 0x29C Bytes, ...)
T3C24 000:832.846   Data:  0B 0C 06 BF 09 04 4F F0 10 0C 4F F0 00 0C 0B 0E ...
T3C24 000:832.884   CPU_WriteMem(668 bytes @ 0x20000164)
T3C24 000:840.140 - 7.343ms returns 0x29C
T3C24 000:840.184 JLINK_WriteMem(0x20000400, 0x164 Bytes, ...)
T3C24 000:840.212   Data:  71 EB 03 07 7B F1 00 0B 24 BF 62 46 39 46 4E EB ...
T3C24 000:840.258   CPU_WriteMem(356 bytes @ 0x20000400)
T3C24 000:844.527 - 4.369ms returns 0x164
T3C24 000:844.580 JLINK_HasError()
T3C24 000:844.616 JLINK_WriteReg(R0, 0x08001400)
T3C24 000:844.651 - 0.050ms returns 0
T3C24 000:844.686 JLINK_WriteReg(R1, 0x00000400)
T3C24 000:844.716 - 0.045ms returns 0
T3C24 000:844.750 JLINK_WriteReg(R2, 0x20000164)
T3C24 000:844.781 - 0.045ms returns 0
T3C24 000:844.814 JLINK_WriteReg(R3, 0x00000000)
T3C24 000:844.847 - 0.048ms returns 0
T3C24 000:844.881 JLINK_WriteReg(R4, 0x00000000)
T3C24 000:844.911 - 0.045ms returns 0
T3C24 000:844.949 JLINK_WriteReg(R5, 0x00000000)
T3C24 000:844.980 - 0.045ms returns 0
T3C24 000:845.017 JLINK_WriteReg(R6, 0x00000000)
T3C24 000:845.047 - 0.045ms returns 0
T3C24 000:845.083 JLINK_WriteReg(R7, 0x00000000)
T3C24 000:845.113 - 0.045ms returns 0
T3C24 000:845.150 JLINK_WriteReg(R8, 0x00000000)
T3C24 000:845.181 - 0.045ms returns 0
T3C24 000:845.217 JLINK_WriteReg(R9, 0x20000160)
T3C24 000:845.247 - 0.045ms returns 0
T3C24 000:845.284 JLINK_WriteReg(R10, 0x00000000)
T3C24 000:845.314 - 0.045ms returns 0
T3C24 000:845.350 JLINK_WriteReg(R11, 0x00000000)
T3C24 000:845.380 - 0.045ms returns 0
T3C24 000:845.417 JLINK_WriteReg(R12, 0x00000000)
T3C24 000:845.447 - 0.044ms returns 0
T3C24 000:845.483 JLINK_WriteReg(R13 (SP), 0x20001000)
T3C24 000:845.514 - 0.046ms returns 0
T3C24 000:845.551 JLINK_WriteReg(R14, 0x20000001)
T3C24 000:845.582 - 0.045ms returns 0
T3C24 000:845.617 JLINK_WriteReg(R15 (PC), 0x200000F4)
T3C24 000:845.648 - 0.045ms returns 0
T3C24 000:845.685 JLINK_WriteReg(XPSR, 0x01000000)
T3C24 000:845.716 - 0.045ms returns 0
T3C24 000:845.751 JLINK_WriteReg(MSP, 0x20001000)
T3C24 000:845.781 - 0.044ms returns 0
T3C24 000:845.818 JLINK_WriteReg(PSP, 0x20001000)
T3C24 000:845.851 - 0.046ms returns 0
T3C24 000:845.886 JLINK_WriteReg(CFBP, 0x00000000)
T3C24 000:845.922 - 0.054ms returns 0
T3C24 000:845.963 JLINK_SetBPEx(Addr = 0x20000000, Type = 0xFFFFFFF2)
T3C24 000:845.995 - 0.047ms returns 0x0000000A
T3C24 000:846.114 JLINK_Go()
T3C24 000:846.176   CPU_ReadMem(4 bytes @ 0xE0001000)
T3C24 000:851.969 - 5.884ms
T3C24 000:852.024 JLINK_IsHalted()
T3C24 000:852.849 - 0.851ms returns FALSE
T3C24 000:852.900 JLINK_HasError()
T3C24 000:854.943 JLINK_IsHalted()
T3C24 000:855.649 - 0.736ms returns FALSE
T3C24 000:855.705 JLINK_HasError()
T3C24 000:859.842 JLINK_IsHalted()
T3C24 000:860.670 - 0.866ms returns FALSE
T3C24 000:860.718 JLINK_HasError()
T3C24 000:861.829 JLINK_IsHalted()
T3C24 000:862.942 - 1.124ms returns FALSE
T3C24 000:862.963 JLINK_HasError()
T3C24 000:864.799 JLINK_IsHalted()
T3C24 000:865.463 - 0.674ms returns FALSE
T3C24 000:865.483 JLINK_HasError()
T3C24 000:866.796 JLINK_IsHalted()
T3C24 000:867.735 - 0.948ms returns FALSE
T3C24 000:867.757 JLINK_HasError()
T3C24 000:869.145 JLINK_IsHalted()
T3C24 000:870.046 - 0.914ms returns FALSE
T3C24 000:870.075 JLINK_HasError()
T3C24 000:871.750 JLINK_IsHalted()
T3C24 000:872.244 - 0.503ms returns FALSE
T3C24 000:872.266 JLINK_HasError()
T3C24 000:873.744 JLINK_IsHalted()
T3C24 000:874.274 - 0.541ms returns FALSE
T3C24 000:874.295 JLINK_HasError()
T3C24 000:875.810 JLINK_IsHalted()
T3C24 000:876.443 - 0.643ms returns FALSE
T3C24 000:876.464 JLINK_HasError()
T3C24 000:877.771 JLINK_IsHalted()
T3C24 000:878.969 - 1.219ms returns FALSE
T3C24 000:879.004 JLINK_HasError()
T3C24 000:880.359 JLINK_IsHalted()
T3C24 000:881.594 - 1.256ms returns FALSE
T3C24 000:881.629 JLINK_HasError()
T3C24 000:883.370 JLINK_IsHalted()
T3C24 000:889.189   CPU_ReadMem(2 bytes @ 0x20000000)
T3C24 000:889.834 - 6.476ms returns TRUE
T3C24 000:889.858 JLINK_ReadReg(R15 (PC))
T3C24 000:889.874 - 0.022ms returns 0x20000000
T3C24 000:889.888 JLINK_ClrBPEx(BPHandle = 0x0000000A)
T3C24 000:889.901 - 0.019ms returns 0x00
T3C24 000:889.915 JLINK_ReadReg(R0)
T3C24 000:889.928 - 0.018ms returns 0x00000000
T3C24 000:890.395 JLINK_WriteMem(0x20000164, 0x29C Bytes, ...)
T3C24 000:890.412   Data:  20 0F DF BF 16 43 0A 46 00 21 20 33 5B 42 BE D0 ...
T3C24 000:890.436   CPU_WriteMem(668 bytes @ 0x20000164)
T3C24 000:897.615 - 7.242ms returns 0x29C
T3C24 000:897.654 JLINK_WriteMem(0x20000400, 0x164 Bytes, ...)
T3C24 000:897.669   Data:  45 EB 1C 42 12 19 51 F1 00 01 48 BF 70 47 B6 19 ...
T3C24 000:897.701   CPU_WriteMem(356 bytes @ 0x20000400)
T3C24 000:902.212 - 4.582ms returns 0x164
T3C24 000:902.255 JLINK_HasError()
T3C24 000:902.275 JLINK_WriteReg(R0, 0x08001800)
T3C24 000:902.294 - 0.027ms returns 0
T3C24 000:902.313 JLINK_WriteReg(R1, 0x00000400)
T3C24 000:902.328 - 0.021ms returns 0
T3C24 000:902.344 JLINK_WriteReg(R2, 0x20000164)
T3C24 000:902.359 - 0.022ms returns 0
T3C24 000:902.376 JLINK_WriteReg(R3, 0x00000000)
T3C24 000:902.391 - 0.021ms returns 0
T3C24 000:902.407 JLINK_WriteReg(R4, 0x00000000)
T3C24 000:902.421 - 0.021ms returns 0
T3C24 000:902.438 JLINK_WriteReg(R5, 0x00000000)
T3C24 000:902.453 - 0.022ms returns 0
T3C24 000:902.472 JLINK_WriteReg(R6, 0x00000000)
T3C24 000:902.487 - 0.022ms returns 0
T3C24 000:902.503 JLINK_WriteReg(R7, 0x00000000)
T3C24 000:902.517 - 0.021ms returns 0
T3C24 000:902.534 JLINK_WriteReg(R8, 0x00000000)
T3C24 000:902.549 - 0.021ms returns 0
T3C24 000:902.565 JLINK_WriteReg(R9, 0x20000160)
T3C24 000:902.579 - 0.021ms returns 0
T3C24 000:902.596 JLINK_WriteReg(R10, 0x00000000)
T3C24 000:902.611 - 0.021ms returns 0
T3C24 000:902.627 JLINK_WriteReg(R11, 0x00000000)
T3C24 000:902.642 - 0.022ms returns 0
T3C24 000:902.660 JLINK_WriteReg(R12, 0x00000000)
T3C24 000:902.674 - 0.021ms returns 0
T3C24 000:902.693 JLINK_WriteReg(R13 (SP), 0x20001000)
T3C24 000:902.710 - 0.023ms returns 0
T3C24 000:902.726 JLINK_WriteReg(R14, 0x20000001)
T3C24 000:902.741 - 0.021ms returns 0
T3C24 000:902.758 JLINK_WriteReg(R15 (PC), 0x200000F4)
T3C24 000:902.773 - 0.021ms returns 0
T3C24 000:902.789 JLINK_WriteReg(XPSR, 0x01000000)
T3C24 000:902.803 - 0.021ms returns 0
T3C24 000:902.825 JLINK_WriteReg(MSP, 0x20001000)
T3C24 000:902.842 - 0.024ms returns 0
T3C24 000:902.858 JLINK_WriteReg(PSP, 0x20001000)
T3C24 000:902.873 - 0.021ms returns 0
T3C24 000:902.890 JLINK_WriteReg(CFBP, 0x00000000)
T3C24 000:902.905 - 0.021ms returns 0
T3C24 000:902.995 JLINK_SetBPEx(Addr = 0x20000000, Type = 0xFFFFFFF2)
T3C24 000:903.022 - 0.034ms returns 0x0000000B
T3C24 000:903.040 JLINK_Go()
T3C24 000:903.063   CPU_ReadMem(4 bytes @ 0xE0001000)
T3C24 000:909.125 - 6.111ms
T3C24 000:909.169 JLINK_IsHalted()
T3C24 000:909.879 - 0.726ms returns FALSE
T3C24 000:909.910 JLINK_HasError()
T3C24 000:911.853 JLINK_IsHalted()
T3C24 000:912.786 - 0.949ms returns FALSE
T3C24 000:912.818 JLINK_HasError()
T3C24 000:914.671 JLINK_IsHalted()
T3C24 000:915.356 - 0.715ms returns FALSE
T3C24 000:915.507 JLINK_HasError()
T3C24 000:916.830 JLINK_IsHalted()
T3C24 000:917.860 - 1.048ms returns FALSE
T3C24 000:917.896 JLINK_HasError()
T3C24 000:919.786 JLINK_IsHalted()
T3C24 000:920.492 - 0.725ms returns FALSE
T3C24 000:920.531 JLINK_HasError()
T3C24 000:923.012 JLINK_IsHalted()
T3C24 000:923.910 - 0.908ms returns FALSE
T3C24 000:923.931 JLINK_HasError()
T3C24 000:925.906 JLINK_IsHalted()
T3C24 000:926.785 - 0.890ms returns FALSE
T3C24 000:926.808 JLINK_HasError()
T3C24 000:928.900 JLINK_IsHalted()
T3C24 000:929.878 - 0.990ms returns FALSE
T3C24 000:929.902 JLINK_HasError()
T3C24 000:931.852 JLINK_IsHalted()
T3C24 000:932.691 - 0.852ms returns FALSE
T3C24 000:932.716 JLINK_HasError()
T3C24 000:934.804 JLINK_IsHalted()
T3C24 000:935.605 - 0.816ms returns FALSE
T3C24 000:935.634 JLINK_HasError()
T3C24 000:936.799 JLINK_IsHalted()
T3C24 000:937.637 - 0.852ms returns FALSE
T3C24 000:937.664 JLINK_HasError()
T3C24 000:939.624 JLINK_IsHalted()
T3C24 000:944.563   CPU_ReadMem(2 bytes @ 0x20000000)
T3C24 000:945.346 - 5.738ms returns TRUE
